
**** 05/19/09 12:38:42 ****** PSpice 16.0.0 (August 2007) ***** ID# 1656184 **

 ** Profile: "SCHEMATIC1-bias"  [ Z:\sdr\sdroffset-pspicefiles\schematic1\bias.sim ] 


 ****     CIRCUIT DESCRIPTION


******************************************************************************




** Creating circuit file "bias.cir" 
** WARNING: THIS AUTOMATICALLY GENERATED FILE MAY BE OVERWRITTEN BY SUBSEQUENT SIMULATIONS

*Libraries: 
* Profile Libraries :
* Local Libraries :
* From [PSPICE NETLIST] section of C:\Cadence\SPB_16.01\tools\PSpice\PSpice.ini file:
.lib "nom.lib" 

*Analysis directives: 
.TRAN  0 10 0 
.STEP LIN V_V4 .3 2.5 .1 
.PROBE V(alias(*)) I(alias(*)) W(alias(*)) D(alias(*)) NOISE(alias(*)) 
.INC "..\SCHEMATIC1.net" 



**** INCLUDING SCHEMATIC1.net ****
* source SDROFFSET
R_R5         N25012 N26084  .984e6 TC=0,0 
R_R3         N42219 N43933  253k TC=0,0 
R_R2         0 N44707  1.95k TC=0,0 
C_C1         0 N25012  1.049u  TC=0,0 
R_R7         N24028 N26084  10000 TC=0,0 
X_U3         0 N24028 N26956 N26084 N43933 N25012 N25012 N26084 555C
R_R9         N26084 N44707  4.67k TC=0,0 
V_V1         N26084 0 9Vdc
R_R6         N26956 0  50 TC=0,0 
X_U4         N44707 N42219 N26084 0 N43933 uA741
V_V4         N46811 0 0
R_R11         N42219 N46811  252k TC=0,0 
V_V3         N24028 0  
+PULSE 0 5 0 1e-9 1e-9 .95 1
.PARAM  ts=0

**** RESUMING bias.cir ****
.END

**** 05/19/09 12:38:42 ****** PSpice 16.0.0 (August 2007) ***** ID# 1656184 **

 ** Profile: "SCHEMATIC1-bias"  [ Z:\sdr\sdroffset-pspicefiles\schematic1\bias.sim ] 


 ****     Diode MODEL PARAMETERS


******************************************************************************




               X_U3.DIODE      X_U4.dx         X_U4.dy         
          IS   10.000000E-15  800.000000E-18  800.000000E-18 
          RS     .01            1               1.000000E-03 
         CJO                                   10.000000E-12 


**** 05/19/09 12:38:42 ****** PSpice 16.0.0 (August 2007) ***** ID# 1656184 **

 ** Profile: "SCHEMATIC1-bias"  [ Z:\sdr\sdroffset-pspicefiles\schematic1\bias.sim ] 


 ****     BJT MODEL PARAMETERS


******************************************************************************




               X_U4.qx         
               NPN             
       LEVEL    1            
          IS  800.000000E-18 
          BF   93.75         
          NF    1            
          BR    1            
          NR    1            
         ISS    0            
          RE    0            
          RC    0            
         CJE    0            
         VJE     .75         
         CJC    0            
         VJC     .75         
         MJC     .33         
        XCJC    1            
         CJS    0            
         VJS     .75         
          KF    0            
          AF    1            
          CN    2.42         
           D     .87         


**** 05/19/09 12:38:42 ****** PSpice 16.0.0 (August 2007) ***** ID# 1656184 **

 ** Profile: "SCHEMATIC1-bias"  [ Z:\sdr\sdroffset-pspicefiles\schematic1\bias.sim ] 


 ****     Junction FET MODEL PARAMETERS


******************************************************************************




               X_U3.JNEMOD     
               NJF             
         VTO   -2.5          
        BETA    5.120000E-06 


**** 05/19/09 12:38:42 ****** PSpice 16.0.0 (August 2007) ***** ID# 1656184 **

 ** Profile: "SCHEMATIC1-bias"  [ Z:\sdr\sdroffset-pspicefiles\schematic1\bias.sim ] 


 ****     MOSFET MODEL PARAMETERS


******************************************************************************




               X_U3.PCHAN555   X_U3.NCHAN555   
               PMOS            NMOS            
       LEVEL    1               1            
           L  100.000000E-06  100.000000E-06 
           W  100.000000E-06  100.000000E-06 
         VTO    -.2              .2          
          KP   20.000000E-06   20.000000E-06 
       GAMMA    0               0            
         PHI     .6              .6          
      LAMBDA    0               0            
          IS   10.000000E-15   10.000000E-15 
          JS    0               0            
          PB     .8              .8          
        PBSW     .8              .8          
          CJ    0               0            
        CJSW    0               0            
        CGSO    1.000000E-12    1.000000E-12 
        CGDO    1.000000E-12    1.000000E-12 
        CGBO    1.000000E-12    1.000000E-12 
         TOX    0               0            
          XJ    0               0            
       UCRIT   10.000000E+03   10.000000E+03 
      DIOMOD    1               1            
         VFB    0               0            
        LETA    0               0            
        WETA    0               0            
          U0    0               0            
        TEMP    0               0            
         VDD    0               0            
       XPART    0               0            


               X_U3.PCHAN555_OUT 
               PMOS            
       LEVEL    1            
           L  100.000000E-06 
           W  100.000000E-06 
         VTO    -.2          
          KP   20.000000E-06 
       GAMMA    0            
         PHI     .6          
      LAMBDA    0            
          IS   10.000000E-15 
          JS    0            
          PB     .8          
        PBSW     .8          
         CBD  200.000000E-12 
          CJ    0            
        CJSW    0            
        CGSO    1.000000E-12 
        CGDO    1.000000E-12 
        CGBO    1.000000E-12 
         TOX    0            
          XJ    0            
       UCRIT   10.000000E+03 
      DIOMOD    1            
         VFB    0            
        LETA    0            
        WETA    0            
          U0    0            
        TEMP    0            
         VDD    0            
       XPART    0            


**** 05/19/09 12:38:42 ****** PSpice 16.0.0 (August 2007) ***** ID# 1656184 **

 ** Profile: "SCHEMATIC1-bias"  [ Z:\sdr\sdroffset-pspicefiles\schematic1\bias.sim ] 


 ****     INITIAL TRANSIENT SOLUTION       TEMPERATURE =   27.000 DEG C

 ****     CURRENT STEP                     V_V4 =     .3   


******************************************************************************



 NODE   VOLTAGE     NODE   VOLTAGE     NODE   VOLTAGE     NODE   VOLTAGE


(N24028)    0.0000 (N25012)    9.0000 (N26084)    9.0000 (N26956)    4.8687     

(N42219)    2.6510 (N43933)    5.0314 (N44707)    2.6509 (N46811)     .3000     

(X_U3.1) 409.5E-12 (X_U3.2)    2.5157 (X_U3.3) 25.16E+03 (X_U3.4)    8.2000     

(X_U3.5)    8.0790 (X_U3.6) 39.69E+03 (X_U3.7)    8.2000 (X_U3.8)    8.0908     

(X_U3.9) 66.90E-12 (X_U4.6)-50.08E-06 (X_U4.7)    5.0314 (X_U4.8)    5.0314     

(X_U4.9)    0.0000 (X_U3.10)    9.0000                   (X_U3.11)    9.0000    

(X_U3.12)    9.0000                   (X_U3.13) 409.5E-12                       

(X_U3.14) 341.3E-12                   (X_U3.15)    9.0000                       

(X_U3.16)    9.0000                   (X_U3.17)    9.0000                       

(X_U3.18) 409.5E-12                   (X_U3.19) 204.8E-12                       

(X_U3.20)    9.0000                   (X_U3.21)    8.8908                       

(X_U3.22) 103.7E-12                   (X_U3.23)    8.8790                       

(X_U3.24) 103.8E-12                   (X_U3.25) 102.4E-12                       

(X_U4.10)    2.0437                   (X_U4.11)    8.9607                       

(X_U4.12)    8.9607                   (X_U4.13)    2.0574                       

(X_U4.14)    2.0574                   (X_U4.53)    8.0000                       

(X_U4.54)    1.0000                   (X_U4.90)-277.6E-06                       

(X_U4.91)   40.0000                   (X_U4.92)  -40.0000                       

(X_U4.99)    4.5000                   (X_U3.VDD)    9.0000                  




    VOLTAGE SOURCE CURRENTS
    NAME         CURRENT

    V_V1        -2.875E-03
    V_V4         9.329E-06
    V_V3         9.000E-04
    X_U3.V_U6_V2   8.089E-12
    X_U3.V_U7_V2   8.101E-12
    X_U4.vb     -5.008E-10
    X_U4.vc      2.969E-12
    X_U4.ve      4.008E-12
    X_U4.vlim   -2.776E-07
    X_U4.vlp    -4.000E-11
    X_U4.vln    -4.000E-11

    TOTAL POWER DISSIPATION   2.59E-02  WATTS

Reducing minimum delta to make the circuit converge.

**** 05/19/09 12:38:42 ****** PSpice 16.0.0 (August 2007) ***** ID# 1656184 **

 ** Profile: "SCHEMATIC1-bias"  [ Z:\sdr\sdroffset-pspicefiles\schematic1\bias.sim ] 


 ****     INITIAL TRANSIENT SOLUTION       TEMPERATURE =   27.000 DEG C

 ****     CURRENT STEP                     V_V4 =     .4   


******************************************************************************



 NODE   VOLTAGE     NODE   VOLTAGE     NODE   VOLTAGE     NODE   VOLTAGE


(N24028)    0.0000 (N25012)    9.0000 (N26084)    9.0000 (N26956)    4.8687     

(N42219)    2.6510 (N43933)    4.9310 (N44707)    2.6509 (N46811)     .4000     

(X_U3.1) 409.5E-12 (X_U3.2)    2.4655 (X_U3.3) 24.66E+03 (X_U3.4)    8.2000     

(X_U3.5)    8.0784 (X_U3.6) 40.69E+03 (X_U3.7)    8.2000 (X_U3.8)    8.0914     

(X_U3.9) 66.90E-12 (X_U4.6)-40.60E-06 (X_U4.7)    4.9309 (X_U4.8)    4.9309     

(X_U4.9)    0.0000 (X_U3.10)    9.0000                   (X_U3.11)    9.0000    

(X_U3.12)    9.0000                   (X_U3.13) 409.5E-12                       

(X_U3.14) 341.3E-12                   (X_U3.15)    9.0000                       

(X_U3.16)    9.0000                   (X_U3.17)    9.0000                       

(X_U3.18) 409.5E-12                   (X_U3.19) 204.8E-12                       

(X_U3.20)    9.0000                   (X_U3.21)    8.8914                       

(X_U3.22) 103.7E-12                   (X_U3.23)    8.8784                       

(X_U3.24) 103.8E-12                   (X_U3.25) 102.4E-12                       

(X_U4.10)    2.0437                   (X_U4.11)    8.9607                       

(X_U4.12)    8.9607                   (X_U4.13)    2.0574                       

(X_U4.14)    2.0574                   (X_U4.53)    8.0000                       

(X_U4.54)    1.0000                   (X_U4.90)    -.0017                       

(X_U4.91)   40.0000                   (X_U4.92)  -40.0000                       

(X_U4.99)    4.5000                   (X_U3.VDD)    9.0000                  




    VOLTAGE SOURCE CURRENTS
    NAME         CURRENT

    V_V1        -2.876E-03
    V_V4         8.933E-06
    V_V3         9.000E-04
    X_U3.V_U6_V2   8.088E-12
    X_U3.V_U7_V2   8.101E-12
    X_U4.vb     -4.060E-10
    X_U4.vc      3.070E-12
    X_U4.ve      3.908E-12
    X_U4.vlim   -1.678E-06
    X_U4.vlp    -4.000E-11
    X_U4.vln    -4.000E-11

    TOTAL POWER DISSIPATION   2.59E-02  WATTS

Reducing minimum delta to make the circuit converge.
Reducing minimum delta to make the circuit converge.

**** 05/19/09 12:38:42 ****** PSpice 16.0.0 (August 2007) ***** ID# 1656184 **

 ** Profile: "SCHEMATIC1-bias"  [ Z:\sdr\sdroffset-pspicefiles\schematic1\bias.sim ] 


 ****     INITIAL TRANSIENT SOLUTION       TEMPERATURE =   27.000 DEG C

 ****     CURRENT STEP                     V_V4 =     .5   


******************************************************************************



 NODE   VOLTAGE     NODE   VOLTAGE     NODE   VOLTAGE     NODE   VOLTAGE


(N24028)    0.0000 (N25012)    9.0000 (N26084)    9.0000 (N26956)    4.8687     

(N42219)    2.6510 (N43933)    4.8306 (N44707)    2.6509 (N46811)     .5000     

(X_U3.1) 409.5E-12 (X_U3.2)    2.4153 (X_U3.3) 24.15E+03 (X_U3.4)    8.2000     

(X_U3.5)    8.0779 (X_U3.6) 41.69E+03 (X_U3.7)    8.2000 (X_U3.8)    8.0921     

(X_U3.9) 66.90E-12 (X_U4.6)-31.12E-06 (X_U4.7)    4.8304 (X_U4.8)    4.8304     

(X_U4.9)    0.0000 (X_U3.10)    9.0000                   (X_U3.11)    9.0000    

(X_U3.12)    9.0000                   (X_U3.13) 409.5E-12                       

(X_U3.14) 341.3E-12                   (X_U3.15)    9.0000                       

(X_U3.16)    9.0000                   (X_U3.17)    9.0000                       

(X_U3.18) 409.5E-12                   (X_U3.19) 204.8E-12                       

(X_U3.20)    9.0000                   (X_U3.21)    8.8921                       

(X_U3.22) 103.7E-12                   (X_U3.23)    8.8779                       

(X_U3.24) 103.8E-12                   (X_U3.25) 102.4E-12                       

(X_U4.10)    2.0437                   (X_U4.11)    8.9607                       

(X_U4.12)    8.9607                   (X_U4.13)    2.0574                       

(X_U4.14)    2.0574                   (X_U4.53)    8.0000                       

(X_U4.54)    1.0000                   (X_U4.90)    -.0031                       

(X_U4.91)   40.0000                   (X_U4.92)  -40.0000                       

(X_U4.99)    4.5000                   (X_U3.VDD)    9.0000                  




    VOLTAGE SOURCE CURRENTS
    NAME         CURRENT

    V_V1        -2.877E-03
    V_V4         8.536E-06
    V_V3         9.000E-04
    X_U3.V_U6_V2   8.088E-12
    X_U3.V_U7_V2   8.102E-12
    X_U4.vb     -3.112E-10
    X_U4.vc      3.170E-12
    X_U4.ve      3.807E-12
    X_U4.vlim   -3.079E-06
    X_U4.vlp    -4.000E-11
    X_U4.vln    -4.000E-11

    TOTAL POWER DISSIPATION   2.59E-02  WATTS

Reducing minimum delta to make the circuit converge.

**** 05/19/09 12:38:42 ****** PSpice 16.0.0 (August 2007) ***** ID# 1656184 **

 ** Profile: "SCHEMATIC1-bias"  [ Z:\sdr\sdroffset-pspicefiles\schematic1\bias.sim ] 


 ****     INITIAL TRANSIENT SOLUTION       TEMPERATURE =   27.000 DEG C

 ****     CURRENT STEP                     V_V4 =     .6   


******************************************************************************



 NODE   VOLTAGE     NODE   VOLTAGE     NODE   VOLTAGE     NODE   VOLTAGE


(N24028)    0.0000 (N25012)    9.0000 (N26084)    9.0000 (N26956)    4.8687     

(N42219)    2.6510 (N43933)    4.7302 (N44707)    2.6509 (N46811)     .6000     

(X_U3.1) 409.5E-12 (X_U3.2)    2.3651 (X_U3.3) 23.65E+03 (X_U3.4)    8.2000     

(X_U3.5)    8.0774 (X_U3.6) 42.70E+03 (X_U3.7)    8.2000 (X_U3.8)    8.0927     

(X_U3.9) 66.90E-12 (X_U4.6)-21.63E-06 (X_U4.7)    4.7300 (X_U4.8)    4.7300     

(X_U4.9)    0.0000 (X_U3.10)    9.0000                   (X_U3.11)    9.0000    

(X_U3.12)    9.0000                   (X_U3.13) 409.5E-12                       

(X_U3.14) 341.3E-12                   (X_U3.15)    9.0000                       

(X_U3.16)    9.0000                   (X_U3.17)    9.0000                       

(X_U3.18) 409.5E-12                   (X_U3.19) 204.8E-12                       

(X_U3.20)    9.0000                   (X_U3.21)    8.8927                       

(X_U3.22) 103.7E-12                   (X_U3.23)    8.8774                       

(X_U3.24) 103.8E-12                   (X_U3.25) 102.4E-12                       

(X_U4.10)    2.0437                   (X_U4.11)    8.9607                       

(X_U4.12)    8.9607                   (X_U4.13)    2.0574                       

(X_U4.14)    2.0574                   (X_U4.53)    8.0000                       

(X_U4.54)    1.0000                   (X_U4.90)    -.0045                       

(X_U4.91)   40.0000                   (X_U4.92)  -40.0000                       

(X_U4.99)    4.5000                   (X_U3.VDD)    9.0000                  




    VOLTAGE SOURCE CURRENTS
    NAME         CURRENT

    V_V1        -2.877E-03
    V_V4         8.139E-06
    V_V3         9.000E-04
    X_U3.V_U6_V2   8.087E-12
    X_U3.V_U7_V2   8.103E-12
    X_U4.vb     -2.163E-10
    X_U4.vc      3.271E-12
    X_U4.ve      3.707E-12
    X_U4.vlim   -4.480E-06
    X_U4.vlp    -4.001E-11
    X_U4.vln    -4.000E-11

    TOTAL POWER DISSIPATION   2.59E-02  WATTS

Reducing minimum delta to make the circuit converge.

**** 05/19/09 12:38:42 ****** PSpice 16.0.0 (August 2007) ***** ID# 1656184 **

 ** Profile: "SCHEMATIC1-bias"  [ Z:\sdr\sdroffset-pspicefiles\schematic1\bias.sim ] 


 ****     INITIAL TRANSIENT SOLUTION       TEMPERATURE =   27.000 DEG C

 ****     CURRENT STEP                     V_V4 =     .7   


******************************************************************************



 NODE   VOLTAGE     NODE   VOLTAGE     NODE   VOLTAGE     NODE   VOLTAGE


(N24028)    0.0000 (N25012)    9.0000 (N26084)    9.0000 (N26956)    4.8687     

(N42219)    2.6510 (N43933)    4.6298 (N44707)    2.6509 (N46811)     .7000     

(X_U3.1) 409.5E-12 (X_U3.2)    2.3149 (X_U3.3) 23.15E+03 (X_U3.4)    8.2000     

(X_U3.5)    8.0768 (X_U3.6) 43.70E+03 (X_U3.7)    8.2000 (X_U3.8)    8.0933     

(X_U3.9) 66.90E-12 (X_U4.6)-12.15E-06 (X_U4.7)    4.6295 (X_U4.8)    4.6295     

(X_U4.9)    0.0000 (X_U3.10)    9.0000                   (X_U3.11)    9.0000    

(X_U3.12)    9.0000                   (X_U3.13) 409.5E-12                       

(X_U3.14) 341.3E-12                   (X_U3.15)    9.0000                       

(X_U3.16)    9.0000                   (X_U3.17)    9.0000                       

(X_U3.18) 409.5E-12                   (X_U3.19) 204.8E-12                       

(X_U3.20)    9.0000                   (X_U3.21)    8.8933                       

(X_U3.22) 103.6E-12                   (X_U3.23)    8.8768                       

(X_U3.24) 103.8E-12                   (X_U3.25) 102.4E-12                       

(X_U4.10)    2.0437                   (X_U4.11)    8.9607                       

(X_U4.12)    8.9607                   (X_U4.13)    2.0574                       

(X_U4.14)    2.0574                   (X_U4.53)    8.0000                       

(X_U4.54)    1.0000                   (X_U4.90)    -.0059                       

(X_U4.91)   40.0000                   (X_U4.92)  -40.0000                       

(X_U4.99)    4.5000                   (X_U3.VDD)    9.0000                  




    VOLTAGE SOURCE CURRENTS
    NAME         CURRENT

    V_V1        -2.878E-03
    V_V4         7.742E-06
    V_V3         9.000E-04
    X_U3.V_U6_V2   8.087E-12
    X_U3.V_U7_V2   8.103E-12
    X_U4.vb     -1.215E-10
    X_U4.vc      3.371E-12
    X_U4.ve      3.607E-12
    X_U4.vlim   -5.881E-06
    X_U4.vlp    -4.001E-11
    X_U4.vln    -4.000E-11

    TOTAL POWER DISSIPATION   2.59E-02  WATTS

Reducing minimum delta to make the circuit converge.
Reducing minimum delta to make the circuit converge.

**** 05/19/09 12:38:42 ****** PSpice 16.0.0 (August 2007) ***** ID# 1656184 **

 ** Profile: "SCHEMATIC1-bias"  [ Z:\sdr\sdroffset-pspicefiles\schematic1\bias.sim ] 


 ****     INITIAL TRANSIENT SOLUTION       TEMPERATURE =   27.000 DEG C

 ****     CURRENT STEP                     V_V4 =     .8   


******************************************************************************



 NODE   VOLTAGE     NODE   VOLTAGE     NODE   VOLTAGE     NODE   VOLTAGE


(N24028)    0.0000 (N25012)    9.0000 (N26084)    9.0000 (N26956)    4.8687     

(N42219)    2.6510 (N43933)    4.5294 (N44707)    2.6509 (N46811)     .8000     

(X_U3.1) 409.5E-12 (X_U3.2)    2.2647 (X_U3.3) 22.65E+03 (X_U3.4)    8.2000     

(X_U3.5)    8.0762 (X_U3.6) 44.71E+03 (X_U3.7)    8.2000 (X_U3.8)    8.0939     

(X_U3.9) 66.90E-12 (X_U4.6)-2.668E-06 (X_U4.7)    4.5290 (X_U4.8)    4.5290     

(X_U4.9)    0.0000 (X_U3.10)    9.0000                   (X_U3.11)    9.0000    

